time	V(in)	V(out)
0.000000000000000e+00	0.000000e+00	0.000000e+00
7.142857099446638e-10	2.243995e-05	1.918925e-05
1.428571419889328e-09	4.487989e-05	3.600033e-05
2.142857129833991e-09	6.731984e-05	5.043324e-05
2.857142839778655e-09	8.975979e-05	6.248799e-05
3.571428549723319e-09	1.121997e-04	7.216457e-05
4.285714259667983e-09	1.346397e-04	7.946298e-05
4.999999969612645e-09	1.570796e-04	8.438322e-05
9.999999939225290e-09	3.141593e-04	1.109937e-04
1.759829203547129e-08	5.528667e-04	1.233516e-04
2.727886633327084e-08	8.569909e-04	1.257067e-04
4.456750513219795e-07	1.400146e-02	1.270564e-04
8.640712363106883e-07	2.714561e-02	1.291205e-04
1.282467421299397e-06	4.028946e-02	1.318988e-04
1.700863606288106e-06	5.343300e-02	1.353915e-04
2.119259791276814e-06	6.657624e-02	1.395986e-04
2.537655976265523e-06	7.971916e-02	1.445199e-04
2.956052161254231e-06	9.286178e-02	1.501556e-04
3.932614661254231e-06	1.235342e-01	1.732464e-04
4.909177161254231e-06	1.542019e-01	2.169458e-04
5.885739661254231e-06	1.848638e-01	3.008900e-04
6.862302161254231e-06	2.155188e-01	4.630927e-04
7.838864661254231e-06	2.461656e-01	7.761021e-04
8.815427161254230e-06	2.768032e-01	1.374699e-03
9.791989661254231e-06	3.074304e-01	2.497274e-03
1.076855216125423e-05	3.380460e-01	4.531051e-03
1.174511466125423e-05	3.686488e-01	8.024363e-03
1.272167716125423e-05	3.992378e-01	1.361685e-02
1.369823966125423e-05	4.298118e-01	2.185384e-02
1.467480216125424e-05	4.603695e-01	3.299008e-02
1.565136466125424e-05	4.909100e-01	4.693735e-02
1.662792716125424e-05	5.214319e-01	6.338260e-02
1.760448966125424e-05	5.519342e-01	8.193778e-02
1.858105216125424e-05	5.824158e-01	1.022017e-01
1.955761466125424e-05	6.128754e-01	1.238188e-01
2.053417716125424e-05	6.433120e-01	1.465158e-01
2.248730216125424e-05	7.041112e-01	1.943534e-01
2.541698966125424e-05	7.951084e-01	2.702601e-01
2.806765930411139e-05	8.772644e-01	3.424687e-01
3.071832894696853e-05	9.591206e-01	4.153572e-01
3.336899858982568e-05	1.040677e+00	4.889257e-01
3.601966823268283e-05	1.121933e+00	5.631742e-01
3.867033787553997e-05	1.202890e+00	6.381026e-01
4.132100751839712e-05	1.283547e+00	7.137109e-01
4.397167716125426e-05	1.363904e+00	7.899991e-01
5.192368608982570e-05	1.603862e+00	1.019400e+00
5.987569501839713e-05	1.838395e+00	1.244539e+00
6.782770394696857e-05	2.067501e+00	1.465415e+00
7.577971287554001e-05	2.291180e+00	1.682029e+00
8.373172180411144e-05	2.509433e+00	1.894380e+00
9.168373073268287e-05	2.722260e+00	2.102468e+00
9.963573966125430e-05	2.929661e+00	2.306294e+00
1.142841771612543e-04	3.295623e+00	2.665971e+00
1.289326146612543e-04	3.627516e+00	2.992369e+00
1.435810521612544e-04	3.925340e+00	3.285488e+00
1.582294896612544e-04	4.189096e+00	3.545328e+00
1.728779271612544e-04	4.418783e+00	3.771889e+00
1.875263646612544e-04	4.614401e+00	3.965172e+00
2.021748021612544e-04	4.775951e+00	4.125176e+00
2.244962307326830e-04	4.931644e+00	4.278941e+00
2.468176593041116e-04	4.992961e+00	4.339515e+00
2.691390878755402e-04	4.959903e+00	4.306899e+00
2.914605164469687e-04	4.832470e+00	4.181092e+00
3.137819450183974e-04	4.610662e+00	3.962095e+00
3.361033735898260e-04	4.294479e+00	3.649907e+00
3.584248021612545e-04	3.883921e+00	3.244529e+00
3.694460075183974e-04	3.653516e+00	3.017018e+00
3.804672128755402e-04	3.408735e+00	2.776078e+00
3.914884182326831e-04	3.149579e+00	2.521709e+00
4.025096235898260e-04	2.876048e+00	2.253912e+00
4.135308289469689e-04	2.588140e+00	1.972687e+00
4.245520343041117e-04	2.285858e+00	1.678034e+00
4.355732396612546e-04	1.969199e+00	1.369952e+00
4.401770343041117e-04	1.835163e+00	1.239829e+00
4.447808289469689e-04	1.699878e+00	1.109551e+00
4.493846235898260e-04	1.563344e+00	9.791200e-01
4.539884182326832e-04	1.425560e+00	8.485345e-01
4.585922128755403e-04	1.286526e+00	7.177949e-01
4.631960075183974e-04	1.146244e+00	5.869012e-01
4.677998021612546e-04	1.004712e+00	4.558534e-01
4.691948914469689e-04	9.617314e-01	4.166796e-01
4.705899807326832e-04	9.186854e-01	3.780386e-01
4.719850700183975e-04	8.755738e-01	3.399304e-01
4.733801593041118e-04	8.323965e-01	3.023551e-01
4.747752485898261e-04	7.891537e-01	2.653125e-01
4.761703378755403e-04	7.458452e-01	2.288027e-01
4.775654271612546e-04	7.024711e-01	1.928257e-01
4.795185521612546e-04	6.416692e-01	1.450275e-01
4.804951146612546e-04	6.112313e-01	1.223610e-01
4.814716771612546e-04	5.807705e-01	1.007862e-01
4.824482396612546e-04	5.502878e-01	8.057874e-02
4.834248021612546e-04	5.197844e-01	6.208435e-02
4.844013646612546e-04	4.892614e-01	4.571827e-02
4.853779271612546e-04	4.587200e-01	3.190019e-02
4.863544896612546e-04	4.281614e-01	2.092929e-02
4.873310521612546e-04	3.975866e-01	1.286322e-02
4.883076146612546e-04	3.669968e-01	7.423623e-03
4.892841771612546e-04	3.363932e-01	4.049310e-03
4.902607396612546e-04	3.057770e-01	2.099351e-03
4.912373021612546e-04	2.751492e-01	1.030331e-03
4.922138646612546e-04	2.445111e-01	4.641150e-04
4.931904271612546e-04	2.138638e-01	1.703599e-04
4.941669896612546e-04	1.832084e-01	2.010987e-05
4.951435521612546e-04	1.525461e-01	-5.585150e-05
4.961201146612546e-04	1.218781e-01	-9.371838e-05
4.970966771612546e-04	9.120551e-02	-1.121612e-04
4.980732396612546e-04	6.052948e-02	-1.207407e-04
5.000263646612546e-04	-8.282703e-04	-1.254182e-04
5.043511414469689e-04	-1.369279e-01	-1.206918e-04
5.086759182326832e-04	-2.726766e-01	-1.161908e-04
5.130006950183975e-04	-4.080744e-01	-1.119152e-04
5.173254718041117e-04	-5.431213e-01	-1.078652e-04
5.216502485898260e-04	-6.778173e-01	-1.040406e-04
5.259750253755404e-04	-8.121624e-01	-1.004415e-04
5.302998021612547e-04	-9.461566e-01	-9.706790e-05
5.404839539469690e-04	-1.261194e+00	-9.070401e-05
5.506681057326833e-04	-1.568029e+00	-8.472534e-05
5.608522575183976e-04	-1.866661e+00	-7.913186e-05
5.710364093041119e-04	-2.157091e+00	-7.392358e-05
5.812205610898261e-04	-2.439317e+00	-6.910051e-05
5.914047128755404e-04	-2.713341e+00	-6.466263e-05
6.015888646612547e-04	-2.979162e+00	-6.060996e-05
6.181904271612547e-04	-3.389180e+00	-5.389828e-05
6.347919896612547e-04	-3.753899e+00	-4.724917e-05
6.513935521612548e-04	-4.073320e+00	-4.066263e-05
6.679951146612548e-04	-4.347442e+00	-3.413866e-05
6.845966771612548e-04	-4.576265e+00	-2.767726e-05
7.011982396612548e-04	-4.759790e+00	-2.127843e-05
7.177998021612548e-04	-4.898015e+00	-1.494217e-05
7.392841771612548e-04	-4.982382e+00	-6.688212e-06
7.607685521612549e-04	-4.980793e+00	1.587693e-06
7.822529271612549e-04	-4.893249e+00	9.885546e-06
8.037373021612549e-04	-4.719750e+00	1.820535e-05
8.252216771612549e-04	-4.460296e+00	2.654710e-05
8.467060521612549e-04	-4.114887e+00	3.491080e-05
8.681904271612550e-04	-3.683523e+00	4.329645e-05
8.800486860898264e-04	-3.417375e+00	4.785260e-05
8.919069450183979e-04	-3.136407e+00	5.265662e-05
9.037652039469693e-04	-2.840616e+00	5.770850e-05
9.156234628755407e-04	-2.530005e+00	6.300825e-05
9.274817218041122e-04	-2.204571e+00	6.855585e-05
9.393399807326836e-04	-1.864316e+00	7.435132e-05
9.511982396612550e-04	-1.509240e+00	8.039465e-05
9.553835075183978e-04	-1.383160e+00	8.272265e-05
9.595687753755406e-04	-1.256345e+00	8.523366e-05
9.637540432326834e-04	-1.128793e+00	8.792769e-05
9.679393110898261e-04	-1.000506e+00	9.080473e-05
9.721245789469689e-04	-8.714837e-01	9.386478e-05
9.763098468041117e-04	-7.417254e-01	9.710784e-05
9.804951146612545e-04	-6.112313e-01	1.005339e-04
9.814716771612544e-04	-5.807705e-01	1.014002e-04
9.838433289469685e-04	-5.066642e-01	1.034208e-04
9.862149807326824e-04	-4.324866e-01	1.056992e-04
9.885866325183964e-04	-3.582377e-01	1.082355e-04
9.909582843041105e-04	-2.839176e-01	1.110298e-04
9.933299360898246e-04	-2.095262e-01	1.140820e-04
9.957015878755385e-04	-1.350635e-01	1.173921e-04
9.980732396612526e-04	-6.052948e-02	1.209601e-04
9.990498021612525e-04	-2.985117e-02	1.231345e-04
1.000000000000000e-03	-1.224647e-15	1.256729e-04
